ZPLOT2 ASCII
  Measured Data, ZPlot:       3.4f
  Experiment Type:            Sweep Frequency, Control Voltage
  Date:                       07-15-2016
  Time:                       16:47:53
  Open Circuit Potential (V): 0
  Begin User Comments:        0
  End User Comments:          0
  Begin Experiment:           0
    Potential-DC:             0
    Potential-DC Type:        1
    Potential-AC:             10
    Potential-Monitor Type:   0
    Potential-Monitor TargetI:1
    Potential-Monitor Limit:  3000
    Potential-Monitor Error:  25
    Current-DC:               0
    Current-AC:               0,1
    Current-Monitor Type:     0
    Current-Monitor TargetE:  20
    Current-Monitor Limit:    60
    Current-Monitor Error:    25
    vs Freq-Initial:          10000000
    vs Freq-Final:            0,1
    vs Freq-Lin/Log Type:     1
    vs Freq-Linear Type:      1
    vs Freq-Linear Interval:  100
    vs Freq-Log Type:         0
    vs Freq-Log Interval:     7
    Harmonics:                3
    PolE-Initial:             0
    PolE-Final:               0,2
    PolE-InitialType:         1
    PolE-FinalType:           1
    PolE-SweepRate:           1
    PolE-SweepRateType:       0
    PolE-DataRate:            5
    PolE-SegmentNo:           2
    PolE-IR:                  0
    AmplE-Initial:            10
    AmplE-Final:              200
    AmplE-SweepRate:          1
    AmplE-DataRate:           5
    AmplE-SegmentNo:          2
    PolI-Initial:             0
    PolI-Vertex:              0,01
    PolI-Final:               0,01
    PolI-SweepRate:           0,1
    PolI-SweepRateType:       0
    PolI-DataRate:            5
    PolI-SegmentNo:           2
    AmplI-Initial:            0,1
    AmplI-Final:              10
    AmplI-SweepRate:          0,1
    AmplI-DataRate:           5
    AmplI-SegmentNo:          2
    vs Time-Freq:             1000
    vs Time-Harmonic:         1
    vs Time-Total Time:       100
    vs Time-Time Type:        0
    vs Time-Interval:         5
  End Experiment:             0
  Begin Pstat/Gstat:          1260
    Pstat Range High:         0
    Pstat Range Low:          0
    Pstat Range Frequency:    5000
    Pstat Range Minimum:      0
    Pstat Limit Range:        0
    Pstat Limit Type:         2
    Pstat Bandwidth:          2
    Pstat Use Aux:            0
    Gstat Range:              0
    Gstat Bandwidth:          2
    Filter:                   1
    Error Beep:               0
    Bias Rejection:           1
    Attenuator:               0
    Grounding:                0
    Zero Bias:                0
    Calibration File
    Nulling-Short File
    Nulling-Open File
  End Pstat/Gstat:            1260
  Begin Analyzer:             1260
    Z60 Mode:                 2
    Z60 GD Freq-:             5
    Z60 GD Freq+:             5
    Bias Voltage:             0
    Auto Integration Type:    0
    Integration Time Type:    0
    Integration Seconds:      0,2
    Integration Cycles:       1
    Delay Time Type:          1
    Delay Seconds:            0
    Delay Cycles:             0
    Source:                   8
    SourceI:                  0
    Error Beep:               0
    Range V1:                 0
    Coupling V1:              0
    Input V1:                 1
    Outer V1:                 1
    Location V1:              0
    Range V2:                 0
    Coupling V2:              0
    Input V2:                 1
    Outer V2:                 1
    Location V2:              0
    Coupling I:               0
  End Analyzer:               1260
  Begin Information:          Cell Information
    Surface Area:             1
    Density:                  0
    Weight:                   0
    Polarity:                 0
    PolarityI:                0
    Corrosion Unit Type:      0
    Reference Type:           0
    Reference Potential:      0
    User-Defined Potential:   0
    Stern-Geary:              26
  End Information:            Cell Information
  Null Configuration:         0,2,0,1,1E07,0.1
  Data Points:                57
  Freq(Hz)	Ampl	Bias	Time(Sec)	Z'(a)	Z''(b)	Aux	Err	Range
End Comments
1.000000E+07	1.0000E-02	0.0000E+00	2.700000E+00	4.9513E+01	-9.8791E+00	0.0000E+00	0	113
7.196857E+06	1.0000E-02	0.0000E+00	3.450000E+00	7.5246E+01	-3.0318E+01	0.0000E+00	0	113
5.179475E+06	1.0000E-02	0.0000E+00	6.950000E+00	9.9236E+01	-4.5970E+01	0.0000E+00	0	113
3.727594E+06	1.0000E-02	0.0000E+00	7.700000E+00	1.2330E+02	-5.4244E+01	0.0000E+00	0	113
2.682696E+06	1.0000E-02	0.0000E+00	8.450000E+00	1.4662E+02	-5.4036E+01	0.0000E+00	0	113
1.930698E+06	1.0000E-02	0.0000E+00	9.200000E+00	1.6481E+02	-4.7290E+01	0.0000E+00	0	113
1.389496E+06	1.0000E-02	0.0000E+00	9.950000E+00	1.6695E+02	-4.0805E+01	0.0000E+00	0	113
1.000000E+06	1.0000E-02	0.0000E+00	1.082000E+01	1.9209E+02	-2.1573E+01	0.0000E+00	0	112
7.196857E+05	1.0000E-02	0.0000E+00	1.170000E+01	1.9634E+02	-1.6522E+01	0.0000E+00	0	112
5.179475E+05	1.0000E-02	0.0000E+00	1.423000E+01	1.9862E+02	-1.2989E+01	0.0000E+00	0	112
3.727594E+05	1.0000E-02	0.0000E+00	1.510000E+01	2.0022E+02	-1.0152E+01	0.0000E+00	0	112
2.682696E+05	1.0000E-02	0.0000E+00	1.614000E+01	2.0146E+02	-8.3438E+00	0.0000E+00	0	112
1.930698E+05	1.0000E-02	0.0000E+00	1.701000E+01	2.0249E+02	-6.7905E+00	0.0000E+00	0	112
1.389495E+05	1.0000E-02	0.0000E+00	1.789000E+01	2.0324E+02	-5.6119E+00	0.0000E+00	0	112
1.000000E+05	1.0000E-02	0.0000E+00	1.876000E+01	2.0387E+02	-4.5152E+00	0.0000E+00	0	112
7.196857E+04	1.0000E-02	0.0000E+00	1.964000E+01	2.0446E+02	-4.1762E+00	0.0000E+00	0	112
5.179475E+04	1.0000E-02	0.0000E+00	2.376000E+01	2.0458E+02	-4.4494E+00	0.0000E+00	0	112
3.727594E+04	1.0000E-02	0.0000E+00	2.464000E+01	2.0514E+02	-4.3608E+00	0.0000E+00	0	112
2.682696E+04	1.0000E-02	0.0000E+00	2.551000E+01	2.0562E+02	-4.5828E+00	0.0000E+00	0	112
1.930698E+04	1.0000E-02	0.0000E+00	2.639000E+01	2.0624E+02	-4.9763E+00	0.0000E+00	0	112
1.389496E+04	1.0000E-02	0.0000E+00	2.726000E+01	2.0690E+02	-5.5913E+00	0.0000E+00	0	112
1.000000E+04	1.0000E-02	0.0000E+00	2.814000E+01	2.0785E+02	-6.5403E+00	0.0000E+00	0	112
7.196857E+03	1.0000E-02	0.0000E+00	2.901000E+01	2.0888E+02	-7.6128E+00	0.0000E+00	0	112
5.179475E+03	1.0000E-02	0.0000E+00	2.989000E+01	2.1025E+02	-8.9290E+00	0.0000E+00	0	112
3.727594E+03	1.0000E-02	0.0000E+00	3.076000E+01	2.1201E+02	-1.0378E+01	0.0000E+00	0	112
2.682696E+03	1.0000E-02	0.0000E+00	3.164000E+01	2.1398E+02	-1.1985E+01	0.0000E+00	0	112
1.930698E+03	1.0000E-02	0.0000E+00	3.251000E+01	2.1622E+02	-1.3678E+01	0.0000E+00	0	112
1.389495E+03	1.0000E-02	0.0000E+00	3.339000E+01	2.1863E+02	-1.5680E+01	0.0000E+00	0	112
1.000000E+03	1.0000E-02	0.0000E+00	3.426000E+01	2.2120E+02	-1.8053E+01	0.0000E+00	0	112
7.196857E+02	1.0000E-02	0.0000E+00	3.515000E+01	2.2388E+02	-2.1083E+01	0.0000E+00	0	112
5.179474E+02	1.0000E-02	0.0000E+00	3.601000E+01	2.2682E+02	-2.5092E+01	0.0000E+00	0	112
3.727594E+02	1.0000E-02	0.0000E+00	3.689000E+01	2.3019E+02	-3.0407E+01	0.0000E+00	0	112
2.682696E+02	1.0000E-02	0.0000E+00	3.939000E+01	2.3453E+02	-3.7321E+01	0.0000E+00	0	112
1.930698E+02	1.0000E-02	0.0000E+00	4.026000E+01	2.3995E+02	-4.6054E+01	0.0000E+00	0	112
1.389496E+02	1.0000E-02	0.0000E+00	4.114000E+01	2.4700E+02	-5.6892E+01	0.0000E+00	0	112
1.000000E+02	1.0000E-02	0.0000E+00	4.201000E+01	2.5604E+02	-7.0110E+01	0.0000E+00	0	112
7.196857E+01	1.0000E-02	0.0000E+00	4.289000E+01	2.6728E+02	-8.5926E+01	0.0000E+00	0	112
5.179475E+01	1.0000E-02	0.0000E+00	4.376000E+01	2.8098E+02	-1.0460E+02	0.0000E+00	0	112
3.727594E+01	1.0000E-02	0.0000E+00	4.464000E+01	2.9755E+02	-1.2806E+02	0.0000E+00	0	112
2.682696E+01	1.0000E-02	0.0000E+00	4.551000E+01	3.1774E+02	-1.5612E+02	0.0000E+00	0	112
1.930698E+01	1.0000E-02	0.0000E+00	4.639000E+01	3.4180E+02	-1.9025E+02	0.0000E+00	0	112
1.389496E+01	1.0000E-02	0.0000E+00	4.726000E+01	3.7156E+02	-2.3251E+02	0.0000E+00	0	112
1.000000E+01	1.0000E-02	0.0000E+00	4.814000E+01	4.0663E+02	-2.8442E+02	0.0000E+00	0	112
7.196860E+00	1.0000E-02	0.0000E+00	4.914000E+01	4.5061E+02	-3.4875E+02	0.0000E+00	0	112
5.179470E+00	1.0000E-02	0.0000E+00	5.028000E+01	5.0455E+02	-4.2761E+02	0.0000E+00	0	112
3.727590E+00	1.0000E-02	0.0000E+00	5.126000E+01	5.6935E+02	-5.2321E+02	0.0000E+00	0	112
2.682700E+00	1.0000E-02	0.0000E+00	5.251000E+01	6.5173E+02	-6.4291E+02	0.0000E+00	0	112
1.930700E+00	1.0000E-02	0.0000E+00	5.364000E+01	7.4928E+02	-7.9284E+02	0.0000E+00	0	112
1.389500E+00	1.0000E-02	0.0000E+00	5.501000E+01	8.6868E+02	-9.6481E+02	0.0000E+00	0	112
1.000000E+00	1.0000E-02	0.0000E+00	5.676000E+01	1.0132E+03	-1.1873E+03	0.0000E+00	0	112
7.196900E-01	1.0000E-02	0.0000E+00	5.876000E+01	1.2146E+03	-1.4251E+03	0.0000E+00	0	111
5.179500E-01	1.0000E-02	0.0000E+00	6.189000E+01	1.4160E+03	-1.7767E+03	0.0000E+00	0	111
3.727600E-01	1.0000E-02	0.0000E+00	6.514000E+01	1.7229E+03	-2.1732E+03	0.0000E+00	0	111
2.682700E-01	1.0000E-02	0.0000E+00	6.940000E+01	2.0220E+03	-2.7256E+03	0.0000E+00	0	111
1.930700E-01	1.0000E-02	0.0000E+00	7.514000E+01	2.4384E+03	-3.2858E+03	0.0000E+00	0	111
1.389500E-01	1.0000E-02	0.0000E+00	8.289000E+01	3.0500E+03	-4.0318E+03	0.0000E+00	0	111
1.000000E-01	1.0000E-02	0.0000E+00	9.351000E+01	3.7812E+03	-5.0121E+03	0.0000E+00	0	111
